
T0818 000:362 SEGGER J-Link V4.24b Log File (0031ms, 0360ms total)
T0818 000:362 DLL Compiled: Feb 22 2011 20:47:17 (0031ms, 0360ms total)
T0818 000:362 Logging started @ 2015-08-16 15:14 (0031ms, 0360ms total)
T0818 000:393 JLINK_SetWarnOutHandler(...) (0000ms, 0391ms total)
T0818 000:393 JLINK_OpenEx(...)
Firmware: J-Link ARM V8 compiled Jan 31 2018 18:34:52
Hardware: V8.00
S/N: 20080643
Feature(s): RDI,FlashDL,FlashBP,JFlash,GDBFull  returns O.K. (0079ms, 0391ms total)
T0818 000:472 JLINK_SetErrorOutHandler(...) (0000ms, 0470ms total)
T0818 000:472 JLINK_ExecCommand("ProjectFile = "D:\StellarisWare\boards\ek-lm3s6911\ser2enet\JLinkSettings.ini"", ...)  returns 0x00 (0001ms, 0470ms total)
T0818 000:477 JLINK_ExecCommand("DisableConnectionTimeout", ...)  returns 0x00 (0000ms, 0471ms total)
T0818 000:477 JLINK_TIF_Select(JLINKARM_TIF_JTAG)  returns 0x00 (0000ms, 0471ms total)
T0818 000:477 JLINK_SetSpeed(1000) (0001ms, 0471ms total)
T0818 000:478 JLINK_GetHardwareVersion()  returns 0x13880 (0000ms, 0472ms total)
T0818 000:478 JLINK_GetDLLVersion()  returns 42402 (0000ms, 0472ms total)
T0818 000:478 JLINK_GetFirmwareString(...) (0000ms, 0472ms total)
T0818 000:496 JLINK_GetDLLVersion()  returns 42402 (0000ms, 0472ms total)
T0818 000:496 JLINK_GetCompileDateTime() (0000ms, 0472ms total)
T0818 000:499 JLINK_GetFirmwareString(...) (0000ms, 0472ms total)
T0818 000:500 JLINK_GetHardwareVersion()  returns 0x13880 (0000ms, 0472ms total)
T0818 000:503 JLINK_GetIdData(...) >0x2F8 JTAG>TotalIRLen = 4, IRPrint = 0x01 >0x30 JTAG> >0x210 JTAG> >0x78 JTAG> >0x40 JTAG> >0x40 JTAG> >0x48 JTAG> >0x40 JTAG> >0x40 JTAG> >0x40 JTAG> >0x48 JTAG> >0x40 JTAG> >0x40 JTAG> >0x30 JTAG> >0x40 JTAG> >0x48 JTAG> >0x40 JTAG> >0x30 JTAG> >0x78 JTAG> >0x40 JTAG> >0x40 JTAG> >0x48 JTAG> >0x40 JTAG> >0x40 JTAG> >0x40 JTAG> >0x48 JTAG> >0x40 JTAG> >0x40 JTAG> >0x30 JTAG> >0x40 JTAG> >0x40 JTAG> >0x40 JTAG> >0x40 JTAG> >0x40 JTAG> >0x48 JTAG> >0x40 JTAG>
 >0x78 JTAG> >0x40 JTAG> >0x30 JTAG> >0x40 JTAG> >0x40 JTAG> >0x40 JTAG> >0x40 JTAG> >0x40 JTAG> >0x48 JTAG> >0x40 JTAG> >0x78 JTAG> >0x40 JTAG> >0x30 JTAG> >0x40 JTAG> >0x48 JTAG> >0x40 JTAG> >0x40 JTAG> >0x40 JTAG> >0x30 JTAG> >0x40 JTAG> >0x48 JTAG> >0x40 JTAG>Found Cortex-M3 r1p1, Little endian. >0x48 JTAG> >0x48 JTAG> >0x40 JTAG> >0x40 JTAG> >0x30 JTAG> >0x30 JTAG> >0x48 JTAG> >0x40 JTAG> >0x78 JTAG> >0x40 JTAG> >0x30 JTAG> >0x40 JTAG> >0x48 JTAG> >0x40 JTAG> >0x40 JTAG> >0x40 JTAG> >0x30 JTAG>
 >0x30 JTAG> >0x48 JTAG> >0x40 JTAG> >0x78 JTAG> >0x40 JTAG> >0x30 JTAG> >0x40 JTAG> >0x48 JTAG> >0x40 JTAG>TPIU fitted. >0x40 JTAG> >0x40 JTAG> >0x30 JTAG> >0x40 JTAG> >0x48 JTAG> >0x40 JTAG> >0x40 JTAG> >0x40 JTAG> >0x30 JTAG> >0x40 JTAG> >0x48 JTAG> >0x40 JTAG> >0x40 JTAG> >0x40 JTAG> >0x30 JTAG> >0x40 JTAG> >0x48 JTAG> >0x40 JTAG>  FPUnit: 6 code (BP) slots and 2 literal slots >0x40 JTAG> >0x40 JTAG> >0x30 JTAG> >0x40 JTAG> >0x48 JTAG> >0x40 JTAG> ScanLen=4 NumDevices=1 aId[0]=0x3BA00477 aIrRead[0]=0
 aScanLen[0]=0 aScanRead[0]=0 (0095ms, 0472ms total)
T0818 000:598 JLINK_JTAG_GetDeviceID(DeviceIndex = 0)  returns 0x3BA00477 (0001ms, 0567ms total)
T0818 000:599 JLINK_JTAG_GetDeviceInfo(DeviceIndex = 0)  returns 0x00 (0000ms, 0568ms total)
T0818 000:599 JLINK_GetDebugInfo(0x100) -- Value=0xE00FF003  returns 0x00 (0000ms, 0568ms total)
T0818 000:600 JLINK_ReadMem (0xE00FFFF0, 0x0010 Bytes, ...) -- CPU is running -- CPU_ReadMem(16 bytes @ 0xE00FFFF0) -- Data:  0D 00 00 00 10 00 00 00 05 00 00 00 B1 00 00 00  returns 0x00 (0004ms, 0568ms total)
T0818 000:604 JLINK_ReadMem (0xE00FFFD0, 0x0020 Bytes, ...) -- CPU is running -- CPU_ReadMem(32 bytes @ 0xE00FFFD0) -- Data:  00 00 00 00 00 00 00 00 00 00 00 00 00 00 00 00 ...  returns 0x00 (0002ms, 0572ms total)
T0818 000:606 JLINK_ReadMem (0xE00FF000, 0x0018 Bytes, ...) -- CPU is running -- CPU_ReadMem(24 bytes @ 0xE00FF000) -- Data:  03 F0 F0 FF 03 20 F0 FF 03 30 F0 FF 03 10 F0 FF ...  returns 0x00 (0002ms, 0574ms total)
T0818 000:608 JLINK_ReadMemU32(0xE000ED00, 0x0001 Items, ...) -- CPU is running -- CPU_ReadMem(4 bytes @ 0xE000ED00) -- Data:  31 C2 1F 41  returns 0x01 (0000ms, 0576ms total)
T0818 000:608 JLINK_SetResetType(JLINKARM_RESET_TYPE_NORMAL)  returns JLINKARM_RESET_TYPE_NORMAL (0000ms, 0576ms total)
T0818 000:608 JLINK_Reset() >0x300 JTAG>TotalIRLen = 4, IRPrint = 0x01 >0x30 JTAG> >0x210 JTAG> >0x78 JTAG> >0x40 JTAG> >0x40 JTAG> >0x48 JTAG> >0x40 JTAG> >0x40 JTAG> >0x40 JTAG> >0x48 JTAG> >0x40 JTAG> >0x40 JTAG> >0x30 JTAG> >0x40 JTAG> >0x48 JTAG> >0x40 JTAG> >0x30 JTAG> >0x78 JTAG> >0x40 JTAG> >0x40 JTAG> >0x48 JTAG> >0x40 JTAG> >0x40 JTAG> >0x40 JTAG> >0x48 JTAG> >0x40 JTAG> >0x40 JTAG> >0x30 JTAG> >0x40 JTAG> >0x40 JTAG> >0x40 JTAG> >0x40 JTAG> >0x40 JTAG> >0x48 JTAG> >0x40 JTAG> >0x78 JTAG>
 >0x40 JTAG> >0x30 JTAG> >0x40 JTAG> >0x40 JTAG> >0x40 JTAG> >0x40 JTAG> >0x40 JTAG> >0x48 JTAG> >0x40 JTAG> >0x78 JTAG> >0x40 JTAG> >0x30 JTAG> >0x40 JTAG> >0x48 JTAG> >0x40 JTAG> >0x40 JTAG> >0x40 JTAG> >0x30 JTAG> >0x40 JTAG> >0x48 JTAG> >0x40 JTAG>Found Cortex-M3 r1p1, Little endian. >0x48 JTAG> >0x48 JTAG> >0x40 JTAG> >0x40 JTAG> >0x30 JTAG> >0x30 JTAG> >0x48 JTAG> >0x40 JTAG> >0x78 JTAG> >0x40 JTAG> >0x30 JTAG> >0x40 JTAG> >0x48 JTAG> >0x40 JTAG> >0x40 JTAG> >0x40 JTAG> >0x30 JTAG> >0x40 JTAG>
 >0x48 JTAG> >0x40 JTAG>TPIU fitted. >0x40 JTAG> >0x40 JTAG> >0x30 JTAG> >0x40 JTAG> >0x48 JTAG> >0x40 JTAG> >0x40 JTAG> >0x40 JTAG> >0x30 JTAG> >0x40 JTAG> >0x48 JTAG> >0x40 JTAG> >0x40 JTAG> >0x40 JTAG> >0x30 JTAG> >0x40 JTAG> >0x48 JTAG> >0x40 JTAG>  FPUnit: 6 code (BP) slots and 2 literal slots >0x40 JTAG> >0x40 JTAG> >0x30 JTAG> >0x40 JTAG> >0x48 JTAG> >0x40 JTAG> -- CPU is running -- CPU_WriteMem(4 bytes @ 0xE000EDF0) -- CPU is running -- CPU_WriteMem(4 bytes @ 0xE000EDFC) -- CPU is running
 -- CPU_WriteMem(4 bytes @ 0xE000ED0C) -- CPU is running -- CPU_ReadMem(4 bytes @ 0xE000EDF0) -- CPU is running -- CPU_ReadMem(4 bytes @ 0xE000EDF0) -- CPU is running -- CPU_WriteMem(4 bytes @ 0xE000EDF0) -- CPU is running -- CPU_WriteMem(4 bytes @ 0xE000EDFC) -- CPU is running -- CPU_ReadMem(4 bytes @ 0xE000EDF0) >0x80 JTAG> >0x40 JTAG> >0x30 JTAG> >0x40 JTAG> >0x48 JTAG> >0x40 JTAG> -- CPU_WriteMem(4 bytes @ 0xE000EDFC) -- CPU_WriteMem(4 bytes @ 0xE0001028) -- CPU_WriteMem(4 bytes @ 0xE0001038)
 -- CPU_WriteMem(4 bytes @ 0xE0001048) -- CPU_WriteMem(4 bytes @ 0xE0001058) (0137ms, 0576ms total)
T0818 000:745 JLINK_WriteU32(0xE000EDFC, 0x00000001) -- CPU_WriteMem(4 bytes @ 0xE000EDFC)  returns 0x00 (0001ms, 0713ms total)
T0818 000:746 JLINK_ReadMemU32(0xE000EDF0, 0x0001 Items, ...) -- CPU_ReadMem(4 bytes @ 0xE000EDF0) -- Data:  03 00 03 00  returns 0x01 (0001ms, 0714ms total)
T0818 000:747 JLINK_ReadMemU32(0x400FE060, 0x0001 Items, ...) -- CPU_ReadMem(4 bytes @ 0x400FE060) -- Data:  D1 3A 80 07  returns 0x01 (0001ms, 0715ms total)
T0818 000:748 JLINK_WriteU32(0x400FE060, 0x07803AD1) -- CPU_WriteMem(4 bytes @ 0x400FE060)  returns 0x00 (0002ms, 0716ms total)
T0818 000:750 JLINK_WriteU32(0xE000ED0C, 0x05FA0001) -- CPU_WriteMem(4 bytes @ 0xE000ED0C)  returns 0x00 (0001ms, 0718ms total)
T0818 000:751 JLINK_ExecCommand("Device = LM3S6911", ...)
                JLINK_ExecCommand("map ram 0x20000000 - 0x2000FFFF", ...)  returns 0x00 (0000ms, 0000ms total)
                JLINK_AddMirrorAreaEx(Addr = 0x00000000, Size = 0x00000000) (0000ms, 0000ms total)
                returns 0x00 (0001ms, 0719ms total)
T0818 000:752 JLINK_Halt() >0x2F8 JTAG>TotalIRLen = 4, IRPrint = 0x01 >0x30 JTAG> >0x210 JTAG> >0x78 JTAG> >0x40 JTAG> >0x40 JTAG> >0x48 JTAG> >0x40 JTAG> >0x40 JTAG> >0x40 JTAG> >0x48 JTAG> >0x40 JTAG> >0x40 JTAG> >0x30 JTAG> >0x40 JTAG> >0x48 JTAG> >0x40 JTAG>  returns 0x00 (0020ms, 0720ms total)
T0818 000:772 JLINK_IsHalted()  returns TRUE (0000ms, 0740ms total)
T0818 000:772 JLINK_ReadMemU32(0xE000EDF0, 0x0001 Items, ...) >0x30 JTAG> >0x78 JTAG> >0x40 JTAG> >0x40 JTAG> >0x48 JTAG> >0x40 JTAG> >0x40 JTAG> >0x40 JTAG> >0x48 JTAG> >0x40 JTAG> >0x40 JTAG> >0x30 JTAG> >0x40 JTAG> >0x40 JTAG> >0x40 JTAG> >0x40 JTAG> >0x40 JTAG> >0x48 JTAG> >0x40 JTAG> >0x78 JTAG> >0x40 JTAG> >0x30 JTAG> >0x40 JTAG> >0x40 JTAG> >0x40 JTAG> >0x40 JTAG> >0x40 JTAG> >0x48 JTAG> >0x40 JTAG> >0x78 JTAG> >0x40 JTAG> >0x30 JTAG> >0x40 JTAG> >0x48 JTAG> >0x40 JTAG> >0x40 JTAG> >0x40 JTAG>
 >0x30 JTAG> >0x40 JTAG> >0x48 JTAG> >0x40 JTAG>Found Cortex-M3 r1p1, Little endian. >0x48 JTAG> >0x48 JTAG> >0x40 JTAG> >0x40 JTAG> >0x30 JTAG> >0x30 JTAG> >0x48 JTAG> >0x40 JTAG> >0x78 JTAG> >0x40 JTAG> >0x30 JTAG> >0x40 JTAG> >0x48 JTAG> >0x40 JTAG> >0x40 JTAG> >0x40 JTAG> >0x30 JTAG> >0x40 JTAG> >0x48 JTAG> >0x40 JTAG>TPIU fitted. >0x40 JTAG> >0x40 JTAG> >0x30 JTAG> >0x40 JTAG> >0x48 JTAG> >0x40 JTAG> >0x40 JTAG> >0x40 JTAG> >0x30 JTAG> >0x40 JTAG> >0x48 JTAG> >0x40 JTAG> >0x40 JTAG> >0x40 JTAG>
 >0x30 JTAG> >0x40 JTAG> >0x48 JTAG> >0x40 JTAG>  FPUnit: 6 code (BP) slots and 2 literal slots >0x40 JTAG> >0x40 JTAG> >0x30 JTAG> >0x40 JTAG> >0x48 JTAG> >0x40 JTAG> -- CPU_ReadMem(4 bytes @ 0xE000EDF0) -- Data:  03 00 03 00  returns 0x01 (0078ms, 0740ms total)
T0818 000:850 JLINK_WriteU32(0xE000EDF0, 0xA05F0003) -- CPU_WriteMem(4 bytes @ 0xE000EDF0)  returns 0x00 (0001ms, 0818ms total)
T0818 000:851 JLINK_WriteU32(0xE000EDFC, 0x01000000) -- CPU_WriteMem(4 bytes @ 0xE000EDFC)  returns 0x00 (0001ms, 0819ms total)
T0818 000:852 JLINK_ReadMemU32(0xE0002000, 0x0001 Items, ...) -- CPU_ReadMem(4 bytes @ 0xE0002000) -- Data:  60 02 00 00  returns 0x01 (0002ms, 0820ms total)
T0818 000:854 JLINK_ReadMemU32(0xE0001000, 0x0001 Items, ...) -- CPU_ReadMem(4 bytes @ 0xE0001000) -- Data:  00 00 00 40  returns 0x01 (0001ms, 0822ms total)
T0818 000:862 JLINK_GetHWStatus(...)  returns 0x00 (0001ms, 0823ms total)
T0818 000:870 JLINK_GetNumBPUnits(Type = 0xFFFFFF00)  returns 0x06 (0000ms, 0824ms total)
T0818 000:870 JLINK_GetNumBPUnits(Type = 0xF0)  returns 0x800 (0000ms, 0824ms total)
T0818 000:870 JLINK_GetNumWPUnits()  returns 0x00 (0000ms, 0824ms total)
T0818 000:875 JLINK_GetSpeed()  returns 0x3E8 (0001ms, 0824ms total)
T0818 000:878 JLINK_ReadMemU32(0xE000E004, 0x0001 Items, ...) -- CPU_ReadMem(4 bytes @ 0xE000E004) -- Data:  01 00 00 00  returns 0x01 (0002ms, 0825ms total)
T0818 000:880 JLINK_WriteMem(0xE0001000, 0x001C Bytes, ...) -- Data:  01 00 00 00 00 00 00 00 00 00 00 00 00 00 00 00 ... -- CPU_WriteMem(28 bytes @ 0xE0001000)  returns 0x1C (0002ms, 0827ms total)
T0818 000:882 JLINK_ReadMem (0xE0001000, 0x001C Bytes, ...) -- CPU_ReadMem(28 bytes @ 0xE0001000) -- Data:  01 00 00 40 00 00 00 00 00 00 00 00 00 00 00 00 ...  returns 0x00 (0001ms, 0829ms total)
T0818 000:883 JLINK_ReadMemU32(0x400FE000, 0x0001 Items, ...) -- CPU_ReadMem(4 bytes @ 0x400FE000) -- Data:  02 00 01 10  returns 0x01 (0002ms, 0830ms total)
T0818 000:885 JLINK_Halt()  returns 0x00 (0000ms, 0832ms total)
T0818 000:885 JLINK_IsHalted()  returns TRUE (0000ms, 0832ms total)
T0818 000:893 JLINK_WriteMem(0x20000000, 0x0134 Bytes, ...) -- Data:  00 BE 0A E0 0D 78 2D 06 68 40 08 24 40 00 00 D3 ... -- CPU_WriteMem(308 bytes @ 0x20000000)  returns 0x134 (0005ms, 0832ms total)
T0818 000:898 JLINK_WriteReg(R0, 0x00000000)  returns 0x00 (0000ms, 0837ms total)
T0818 000:898 JLINK_WriteReg(R1, 0x005B8D80)  returns 0x00 (0000ms, 0837ms total)
T0818 000:898 JLINK_WriteReg(R2, 0x00000001)  returns 0x00 (0000ms, 0837ms total)
T0818 000:898 JLINK_WriteReg(R3, 0x00000000)  returns 0x00 (0000ms, 0837ms total)
T0818 000:899 JLINK_WriteReg(R4, 0x00000000)  returns 0x00 (0000ms, 0838ms total)
T0818 000:899 JLINK_WriteReg(R5, 0x00000000)  returns 0x00 (0000ms, 0838ms total)
T0818 000:899 JLINK_WriteReg(R6, 0x00000000)  returns 0x00 (0000ms, 0838ms total)
T0818 000:899 JLINK_WriteReg(R7, 0x00000000)  returns 0x00 (0000ms, 0838ms total)
T0818 000:899 JLINK_WriteReg(R8, 0x00000000)  returns 0x00 (0000ms, 0838ms total)
T0818 000:899 JLINK_WriteReg(R9, 0x20000130)  returns 0x00 (0000ms, 0838ms total)
T0818 000:899 JLINK_WriteReg(R10, 0x00000000)  returns 0x00 (0000ms, 0838ms total)
T0818 000:899 JLINK_WriteReg(R11, 0x00000000)  returns 0x00 (0000ms, 0838ms total)
T0818 000:899 JLINK_WriteReg(R12, 0x00000000)  returns 0x00 (0000ms, 0838ms total)
T0818 000:899 JLINK_WriteReg(R13, 0x20000800)  returns 0x00 (0000ms, 0838ms total)
T0818 000:899 JLINK_WriteReg(R14, 0x20000001)  returns 0x00 (0000ms, 0838ms total)
T0818 000:899 JLINK_WriteReg(R15, 0x20000038)  returns 0x00 (0000ms, 0838ms total)
T0818 000:899 JLINK_WriteReg(XPSR, 0x01000000)  returns 0x00 (0001ms, 0838ms total)
T0818 000:900 JLINK_WriteReg(MSP, 0x20000800)  returns 0x00 (0000ms, 0839ms total)
T0818 000:900 JLINK_WriteReg(PSP, 0x20000800)  returns 0x00 (0000ms, 0839ms total)
T0818 000:900 JLINK_WriteReg(CFBP, 0x00000000)  returns 0x00 (0000ms, 0839ms total)
T0818 000:900 JLINK_SetBPEx(Addr = 0x20000000, Type = 0xFFFFFFF2) -- CPU_ReadMem(2 bytes @ 0x20000000)  returns 0x00000001 (0000ms, 0839ms total)
T0818 000:900 JLINK_Go() -- CPU_WriteMem(2 bytes @ 0x20000000) -- CPU_WriteMem(4 bytes @ 0xE0002008) -- CPU_WriteMem(4 bytes @ 0xE000200C) -- CPU_WriteMem(4 bytes @ 0xE0002010) -- CPU_WriteMem(4 bytes @ 0xE0002014) -- CPU_WriteMem(4 bytes @ 0xE0002018) -- CPU_WriteMem(4 bytes @ 0xE000201C) (0012ms, 0839ms total)
T0818 000:912 JLINK_IsHalted() -- CPU_ReadMem(2 bytes @ 0x20000000)  returns TRUE (0014ms, 0851ms total)
T0818 000:927 JLINK_ReadReg(R15)  returns 0x20000000 (0000ms, 0851ms total)
T0818 000:927 JLINK_ClrBPEx(BPHandle = 0x00000001)  returns 0x00 (0000ms, 0851ms total)
T0818 000:927 JLINK_ReadReg(R0)  returns 0x00000000 (0000ms, 0851ms total)
T0818 000:927 JLINK_WriteReg(R0, 0x00001000)  returns 0x00 (0001ms, 0851ms total)
T0818 000:928 JLINK_WriteReg(R1, 0x00000400)  returns 0x00 (0000ms, 0852ms total)
T0818 000:928 JLINK_WriteReg(R2, 0x000000FF)  returns 0x00 (0000ms, 0852ms total)
T0818 000:928 JLINK_WriteReg(R3, 0x00000000)  returns 0x00 (0000ms, 0852ms total)
T0818 000:928 JLINK_WriteReg(R4, 0x00000000)  returns 0x00 (0000ms, 0852ms total)
T0818 000:928 JLINK_WriteReg(R5, 0x00000000)  returns 0x00 (0000ms, 0852ms total)
T0818 000:928 JLINK_WriteReg(R6, 0x00000000)  returns 0x00 (0000ms, 0852ms total)
T0818 000:928 JLINK_WriteReg(R7, 0x00000000)  returns 0x00 (0000ms, 0852ms total)
T0818 000:928 JLINK_WriteReg(R8, 0x00000000)  returns 0x00 (0000ms, 0852ms total)
T0818 000:928 JLINK_WriteReg(R9, 0x20000130)  returns 0x00 (0000ms, 0852ms total)
T0818 000:928 JLINK_WriteReg(R10, 0x00000000)  returns 0x00 (0000ms, 0852ms total)
T0818 000:928 JLINK_WriteReg(R11, 0x00000000)  returns 0x00 (0000ms, 0852ms total)
T0818 000:928 JLINK_WriteReg(R12, 0x00000000)  returns 0x00 (0000ms, 0852ms total)
T0818 000:928 JLINK_WriteReg(R13, 0x20000800)  returns 0x00 (0000ms, 0852ms total)
T0818 000:928 JLINK_WriteReg(R14, 0x20000001)  returns 0x00 (0000ms, 0852ms total)
T0818 000:928 JLINK_WriteReg(R15, 0x20000020)  returns 0x00 (0001ms, 0852ms total)
T0818 000:929 JLINK_WriteReg(XPSR, 0x01000000)  returns 0x00 (0000ms, 0853ms total)
T0818 000:929 JLINK_WriteReg(MSP, 0x20000800)  returns 0x00 (0000ms, 0853ms total)
T0818 000:929 JLINK_WriteReg(PSP, 0x20000800)  returns 0x00 (0000ms, 0853ms total)
T0818 000:929 JLINK_WriteReg(CFBP, 0x00000000)  returns 0x00 (0000ms, 0853ms total)
T0818 000:929 JLINK_SetBPEx(Addr = 0x20000000, Type = 0xFFFFFFF2)  returns 0x00000002 (0000ms, 0853ms total)
T0818 000:929 JLINK_Go() -- CPU_WriteMem(4 bytes @ 0xE0002008) -- CPU_WriteMem(4 bytes @ 0xE000200C) -- CPU_WriteMem(4 bytes @ 0xE0002010) -- CPU_WriteMem(4 bytes @ 0xE0002014) -- CPU_WriteMem(4 bytes @ 0xE0002018) -- CPU_WriteMem(4 bytes @ 0xE000201C) (0009ms, 0853ms total)
T0818 000:938 JLINK_IsHalted() -- CPU_ReadMem(2 bytes @ 0x20000000)  returns TRUE (0014ms, 0862ms total)
T0818 000:952 JLINK_ReadReg(R15)  returns 0x20000000 (0000ms, 0862ms total)
T0818 000:952 JLINK_ClrBPEx(BPHandle = 0x00000002)  returns 0x00 (0000ms, 0862ms total)
T0818 000:952 JLINK_ReadReg(R0)  returns 0x00000001 (0000ms, 0862ms total)
T0818 000:952 JLINK_WriteReg(R0, 0x00001000)  returns 0x00 (0000ms, 0862ms total)
T0818 000:952 JLINK_WriteReg(R1, 0x00000400)  returns 0x00 (0000ms, 0862ms total)
T0818 000:952 JLINK_WriteReg(R2, 0x000000FF)  returns 0x00 (0000ms, 0862ms total)
T0818 000:952 JLINK_WriteReg(R3, 0x00000000)  returns 0x00 (0000ms, 0862ms total)
T0818 000:952 JLINK_WriteReg(R4, 0x00000000)  returns 0x00 (0000ms, 0862ms total)
T0818 000:952 JLINK_WriteReg(R5, 0x00000000)  returns 0x00 (0000ms, 0862ms total)
T0818 000:952 JLINK_WriteReg(R6, 0x00000000)  returns 0x00 (0000ms, 0862ms total)
T0818 000:952 JLINK_WriteReg(R7, 0x00000000)  returns 0x00 (0000ms, 0862ms total)
T0818 000:952 JLINK_WriteReg(R8, 0x00000000)  returns 0x00 (0001ms, 0862ms total)
T0818 000:953 JLINK_WriteReg(R9, 0x20000130)  returns 0x00 (0000ms, 0863ms total)
T0818 000:953 JLINK_WriteReg(R10, 0x00000000)  returns 0x00 (0000ms, 0863ms total)
T0818 000:953 JLINK_WriteReg(R11, 0x00000000)  returns 0x00 (0000ms, 0863ms total)
T0818 000:953 JLINK_WriteReg(R12, 0x00000000)  returns 0x00 (0000ms, 0863ms total)
T0818 000:953 JLINK_WriteReg(R13, 0x20000800)  returns 0x00 (0000ms, 0863ms total)
T0818 000:953 JLINK_WriteReg(R14, 0x20000001)  returns 0x00 (0000ms, 0863ms total)
T0818 000:953 JLINK_WriteReg(R15, 0x20000088)  returns 0x00 (0000ms, 0863ms total)
T0818 000:953 JLINK_WriteReg(XPSR, 0x01000000)  returns 0x00 (0000ms, 0863ms total)
T0818 000:953 JLINK_WriteReg(MSP, 0x20000800)  returns 0x00 (0000ms, 0863ms total)
T0818 000:953 JLINK_WriteReg(PSP, 0x20000800)  returns 0x00 (0000ms, 0863ms total)
T0818 000:953 JLINK_WriteReg(CFBP, 0x00000000)  returns 0x00 (0000ms, 0863ms total)
T0818 000:953 JLINK_SetBPEx(Addr = 0x20000000, Type = 0xFFFFFFF2)  returns 0x00000003 (0000ms, 0863ms total)
T0818 000:953 JLINK_Go() -- CPU_WriteMem(4 bytes @ 0xE0002008) -- CPU_WriteMem(4 bytes @ 0xE000200C) -- CPU_WriteMem(4 bytes @ 0xE0002010) -- CPU_WriteMem(4 bytes @ 0xE0002014) -- CPU_WriteMem(4 bytes @ 0xE0002018) -- CPU_WriteMem(4 bytes @ 0xE000201C) (0010ms, 0863ms total)
T0818 000:963 JLINK_IsHalted()  returns FALSE (0001ms, 0873ms total)
T0818 001:015 JLINK_IsHalted() -- CPU_ReadMem(2 bytes @ 0x20000000)  returns TRUE (0014ms, 0873ms total)
T0818 001:029 JLINK_ReadReg(R15)  returns 0x20000000 (0000ms, 0873ms total)
T0818 001:029 JLINK_ClrBPEx(BPHandle = 0x00000003)  returns 0x00 (0000ms, 0873ms total)
T0818 001:029 JLINK_ReadReg(R0)  returns 0x00000000 (0000ms, 0873ms total)
T0818 001:030 JLINK_WriteReg(R0, 0x00001400)  returns 0x00 (0001ms, 0873ms total)
T0818 001:031 JLINK_WriteReg(R1, 0x00000400)  returns 0x00 (0000ms, 0874ms total)
T0818 001:031 JLINK_WriteReg(R2, 0x000000FF)  returns 0x00 (0000ms, 0874ms total)
T0818 001:031 JLINK_WriteReg(R3, 0x00000000)  returns 0x00 (0000ms, 0874ms total)
T0818 001:031 JLINK_WriteReg(R4, 0x00000000)  returns 0x00 (0000ms, 0874ms total)
T0818 001:031 JLINK_WriteReg(R5, 0x00000000)  returns 0x00 (0000ms, 0874ms total)
T0818 001:031 JLINK_WriteReg(R6, 0x00000000)  returns 0x00 (0000ms, 0874ms total)
T0818 001:031 JLINK_WriteReg(R7, 0x00000000)  returns 0x00 (0000ms, 0874ms total)
T0818 001:031 JLINK_WriteReg(R8, 0x00000000)  returns 0x00 (0000ms, 0874ms total)
T0818 001:031 JLINK_WriteReg(R9, 0x20000130)  returns 0x00 (0000ms, 0874ms total)
T0818 001:031 JLINK_WriteReg(R10, 0x00000000)  returns 0x00 (0000ms, 0874ms total)
T0818 001:031 JLINK_WriteReg(R11, 0x00000000)  returns 0x00 (0000ms, 0874ms total)
T0818 001:031 JLINK_WriteReg(R12, 0x00000000)  returns 0x00 (0000ms, 0874ms total)
T0818 001:031 JLINK_WriteReg(R13, 0x20000800)  returns 0x00 (0000ms, 0874ms total)
T0818 001:031 JLINK_WriteReg(R14, 0x20000001)  returns 0x00 (0000ms, 0874ms total)
T0818 001:031 JLINK_WriteReg(R15, 0x20000020)  returns 0x00 (0001ms, 0874ms total)
T0818 001:032 JLINK_WriteReg(XPSR, 0x01000000)  returns 0x00 (0000ms, 0875ms total)
T0818 001:032 JLINK_WriteReg(MSP, 0x20000800)  returns 0x00 (0000ms, 0875ms total)
T0818 001:032 JLINK_WriteReg(PSP, 0x20000800)  returns 0x00 (0000ms, 0875ms total)
T0818 001:032 JLINK_WriteReg(CFBP, 0x00000000)  returns 0x00 (0000ms, 0875ms total)
T0818 001:032 JLINK_SetBPEx(Addr = 0x20000000, Type = 0xFFFFFFF2)  returns 0x00000004 (0000ms, 0875ms total)
T0818 001:032 JLINK_Go() -- CPU_WriteMem(4 bytes @ 0xE0002008) -- CPU_WriteMem(4 bytes @ 0xE000200C) -- CPU_WriteMem(4 bytes @ 0xE0002010) -- CPU_WriteMem(4 bytes @ 0xE0002014) -- CPU_WriteMem(4 bytes @ 0xE0002018) -- CPU_WriteMem(4 bytes @ 0xE000201C) (0010ms, 0875ms total)
T0818 001:042 JLINK_IsHalted() -- CPU_ReadMem(2 bytes @ 0x20000000)  returns TRUE (0014ms, 0885ms total)
T0818 001:056 JLINK_ReadReg(R15)  returns 0x20000000 (0001ms, 0885ms total)
T0818 001:057 JLINK_ClrBPEx(BPHandle = 0x00000004)  returns 0x00 (0000ms, 0886ms total)
T0818 001:057 JLINK_ReadReg(R0)  returns 0x00000001 (0000ms, 0886ms total)
T0818 001:057 JLINK_WriteReg(R0, 0x00001400)  returns 0x00 (0000ms, 0886ms total)
T0818 001:057 JLINK_WriteReg(R1, 0x00000400)  returns 0x00 (0000ms, 0886ms total)
T0818 001:057 JLINK_WriteReg(R2, 0x000000FF)  returns 0x00 (0000ms, 0886ms total)
T0818 001:057 JLINK_WriteReg(R3, 0x00000000)  returns 0x00 (0000ms, 0886ms total)
T0818 001:057 JLINK_WriteReg(R4, 0x00000000)  returns 0x00 (0000ms, 0886ms total)
T0818 001:057 JLINK_WriteReg(R5, 0x00000000)  returns 0x00 (0000ms, 0886ms total)
T0818 001:057 JLINK_WriteReg(R6, 0x00000000)  returns 0x00 (0001ms, 0886ms total)
T0818 001:058 JLINK_WriteReg(R7, 0x00000000)  returns 0x00 (0000ms, 0887ms total)
T0818 001:058 JLINK_WriteReg(R8, 0x00000000)  returns 0x00 (0000ms, 0887ms total)
T0818 001:058 JLINK_WriteReg(R9, 0x20000130)  returns 0x00 (0000ms, 0887ms total)
T0818 001:058 JLINK_WriteReg(R10, 0x00000000)  returns 0x00 (0000ms, 0887ms total)
T0818 001:058 JLINK_WriteReg(R11, 0x00000000)  returns 0x00 (0000ms, 0887ms total)
T0818 001:058 JLINK_WriteReg(R12, 0x00000000)  returns 0x00 (0000ms, 0887ms total)
T0818 001:058 JLINK_WriteReg(R13, 0x20000800)  returns 0x00 (0000ms, 0887ms total)
T0818 001:058 JLINK_WriteReg(R14, 0x20000001)  returns 0x00 (0000ms, 0887ms total)
T0818 001:058 JLINK_WriteReg(R15, 0x20000088)  returns 0x00 (0000ms, 0887ms total)
T0818 001:058 JLINK_WriteReg(XPSR, 0x01000000)  returns 0x00 (0001ms, 0887ms total)
T0818 001:059 JLINK_WriteReg(MSP, 0x20000800)  returns 0x00 (0000ms, 0888ms total)
T0818 001:059 JLINK_WriteReg(PSP, 0x20000800)  returns 0x00 (0000ms, 0888ms total)
T0818 001:059 JLINK_WriteReg(CFBP, 0x00000000)  returns 0x00 (0000ms, 0888ms total)
T0818 001:059 JLINK_SetBPEx(Addr = 0x20000000, Type = 0xFFFFFFF2)  returns 0x00000005 (0000ms, 0888ms total)
T0818 001:059 JLINK_Go() -- CPU_WriteMem(4 bytes @ 0xE0002008) -- CPU_WriteMem(4 bytes @ 0xE000200C) -- CPU_WriteMem(4 bytes @ 0xE0002010) -- CPU_WriteMem(4 bytes @ 0xE0002014) -- CPU_WriteMem(4 bytes @ 0xE0002018) -- CPU_WriteMem(4 bytes @ 0xE000201C) (0009ms, 0888ms total)
T0818 001:068 JLINK_IsHalted()  returns FALSE (0001ms, 0897ms total)
T0818 001:120 JLINK_IsHalted() -- CPU_ReadMem(2 bytes @ 0x20000000)  returns TRUE (0014ms, 0897ms total)
T0818 001:134 JLINK_ReadReg(R15)  returns 0x20000000 (0000ms, 0897ms total)
T0818 001:134 JLINK_ClrBPEx(BPHandle = 0x00000005)  returns 0x00 (0000ms, 0897ms total)
T0818 001:134 JLINK_ReadReg(R0)  returns 0x00000000 (0000ms, 0897ms total)
T0818 001:135 JLINK_WriteReg(R0, 0x00001800)  returns 0x00 (0000ms, 0897ms total)
T0818 001:135 JLINK_WriteReg(R1, 0x00000400)  returns 0x00 (0000ms, 0897ms total)
T0818 001:135 JLINK_WriteReg(R2, 0x000000FF)  returns 0x00 (0001ms, 0897ms total)
T0818 001:136 JLINK_WriteReg(R3, 0x00000000)  returns 0x00 (0000ms, 0898ms total)
T0818 001:136 JLINK_WriteReg(R4, 0x00000000)  returns 0x00 (0000ms, 0898ms total)
T0818 001:136 JLINK_WriteReg(R5, 0x00000000)  returns 0x00 (0000ms, 0898ms total)
T0818 001:136 JLINK_WriteReg(R6, 0x00000000)  returns 0x00 (0000ms, 0898ms total)
T0818 001:136 JLINK_WriteReg(R7, 0x00000000)  returns 0x00 (0000ms, 0898ms total)
T0818 001:136 JLINK_WriteReg(R8, 0x00000000)  returns 0x00 (0000ms, 0898ms total)
T0818 001:136 JLINK_WriteReg(R9, 0x20000130)  returns 0x00 (0000ms, 0898ms total)
T0818 001:136 JLINK_WriteReg(R10, 0x00000000)  returns 0x00 (0000ms, 0898ms total)
T0818 001:136 JLINK_WriteReg(R11, 0x00000000)  returns 0x00 (0000ms, 0898ms total)
T0818 001:136 JLINK_WriteReg(R12, 0x00000000)  returns 0x00 (0000ms, 0898ms total)
T0818 001:136 JLINK_WriteReg(R13, 0x20000800)  returns 0x00 (0000ms, 0898ms total)
T0818 001:136 JLINK_WriteReg(R14, 0x20000001)  returns 0x00 (0000ms, 0898ms total)
T0818 001:136 JLINK_WriteReg(R15, 0x20000020)  returns 0x00 (0000ms, 0898ms total)
T0818 001:136 JLINK_WriteReg(XPSR, 0x01000000)  returns 0x00 (0000ms, 0898ms total)
T0818 001:136 JLINK_WriteReg(MSP, 0x20000800)  returns 0x00 (0000ms, 0898ms total)
T0818 001:136 JLINK_WriteReg(PSP, 0x20000800)  returns 0x00 (0000ms, 0898ms total)
T0818 001:136 JLINK_WriteReg(CFBP, 0x00000000)  returns 0x00 (0000ms, 0898ms total)
T0818 001:136 JLINK_SetBPEx(Addr = 0x20000000, Type = 0xFFFFFFF2)  returns 0x00000006 (0000ms, 0898ms total)
T0818 001:136 JLINK_Go() -- CPU_WriteMem(4 bytes @ 0xE0002008) -- CPU_WriteMem(4 bytes @ 0xE000200C) -- CPU_WriteMem(4 bytes @ 0xE0002010) -- CPU_WriteMem(4 bytes @ 0xE0002014) -- CPU_WriteMem(4 bytes @ 0xE0002018) -- CPU_WriteMem(4 bytes @ 0xE000201C) (0011ms, 0898ms total)
T0818 001:147 JLINK_IsHalted() -- CPU_ReadMem(2 bytes @ 0x20000000)  returns TRUE (0013ms, 0909ms total)
T0818 001:160 JLINK_ReadReg(R15)  returns 0x20000000 (0000ms, 0909ms total)
T0818 001:160 JLINK_ClrBPEx(BPHandle = 0x00000006)  returns 0x00 (0000ms, 0909ms total)
T0818 001:160 JLINK_ReadReg(R0)  returns 0x00000001 (0000ms, 0909ms total)
T0818 001:160 JLINK_WriteReg(R0, 0x00001800)  returns 0x00 (0000ms, 0909ms total)
T0818 001:160 JLINK_WriteReg(R1, 0x00000400)  returns 0x00 (0000ms, 0909ms total)
T0818 001:160 JLINK_WriteReg(R2, 0x000000FF)  returns 0x00 (0000ms, 0909ms total)
T0818 001:160 JLINK_WriteReg(R3, 0x00000000)  returns 0x00 (0000ms, 0909ms total)
T0818 001:160 JLINK_WriteReg(R4, 0x00000000)  returns 0x00 (0000ms, 0909ms total)
T0818 001:160 JLINK_WriteReg(R5, 0x00000000)  returns 0x00 (0000ms, 0909ms total)
T0818 001:160 JLINK_WriteReg(R6, 0x00000000)  returns 0x00 (0000ms, 0909ms total)
T0818 001:160 JLINK_WriteReg(R7, 0x00000000)  returns 0x00 (0000ms, 0909ms total)
T0818 001:160 JLINK_WriteReg(R8, 0x00000000)  returns 0x00 (0000ms, 0909ms total)
T0818 001:160 JLINK_WriteReg(R9, 0x20000130)  returns 0x00 (0000ms, 0909ms total)
T0818 001:160 JLINK_WriteReg(R10, 0x00000000)  returns 0x00 (0000ms, 0909ms total)
T0818 001:160 JLINK_WriteReg(R11, 0x00000000)  returns 0x00 (0000ms, 0909ms total)
T0818 001:160 JLINK_WriteReg(R12, 0x00000000)  returns 0x00 (0000ms, 0909ms total)
T0818 001:160 JLINK_WriteReg(R13, 0x20000800)  returns 0x00 (0001ms, 0909ms total)
T0818 001:161 JLINK_WriteReg(R14, 0x20000001)  returns 0x00 (0000ms, 0910ms total)
T0818 001:161 JLINK_WriteReg(R15, 0x20000088)  returns 0x00 (0000ms, 0910ms total)
T0818 001:161 JLINK_WriteReg(XPSR, 0x01000000)  returns 0x00 (0000ms, 0910ms total)
T0818 001:161 JLINK_WriteReg(MSP, 0x20000800)  returns 0x00 (0000ms, 0910ms total)
T0818 001:161 JLINK_WriteReg(PSP, 0x20000800)  returns 0x00 (0000ms, 0910ms total)
T0818 001:161 JLINK_WriteReg(CFBP, 0x00000000)  returns 0x00 (0000ms, 0910ms total)
T0818 001:161 JLINK_SetBPEx(Addr = 0x20000000, Type = 0xFFFFFFF2)  returns 0x00000007 (0000ms, 0910ms total)
T0818 001:161 JLINK_Go() -- CPU_WriteMem(4 bytes @ 0xE0002008) -- CPU_WriteMem(4 bytes @ 0xE000200C) -- CPU_WriteMem(4 bytes @ 0xE0002010) -- CPU_WriteMem(4 bytes @ 0xE0002014) -- CPU_WriteMem(4 bytes @ 0xE0002018) -- CPU_WriteMem(4 bytes @ 0xE000201C) (0010ms, 0910ms total)
T0818 001:171 JLINK_IsHalted()  returns FALSE (0001ms, 0920ms total)
T0818 001:223 JLINK_IsHalted() -- CPU_ReadMem(2 bytes @ 0x20000000)  returns TRUE (0013ms, 0920ms total)
T0818 001:236 JLINK_ReadReg(R15)  returns 0x20000000 (0000ms, 0920ms total)
T0818 001:236 JLINK_ClrBPEx(BPHandle = 0x00000007)  returns 0x00 (0000ms, 0920ms total)
T0818 001:236 JLINK_ReadReg(R0)  returns 0x00000000 (0000ms, 0920ms total)
T0818 001:238 JLINK_WriteReg(R0, 0x00001C00)  returns 0x00 (0000ms, 0921ms total)
T0818 001:238 JLINK_WriteReg(R1, 0x00000400)  returns 0x00 (0000ms, 0921ms total)
T0818 001:238 JLINK_WriteReg(R2, 0x000000FF)  returns 0x00 (0000ms, 0921ms total)
T0818 001:238 JLINK_WriteReg(R3, 0x00000000)  returns 0x00 (0000ms, 0921ms total)
T0818 001:238 JLINK_WriteReg(R4, 0x00000000)  returns 0x00 (0000ms, 0921ms total)
T0818 001:238 JLINK_WriteReg(R5, 0x00000000)  returns 0x00 (0000ms, 0921ms total)
T0818 001:238 JLINK_WriteReg(R6, 0x00000000)  returns 0x00 (0000ms, 0921ms total)
T0818 001:238 JLINK_WriteReg(R7, 0x00000000)  returns 0x00 (0000ms, 0921ms total)
T0818 001:238 JLINK_WriteReg(R8, 0x00000000)  returns 0x00 (0000ms, 0921ms total)
T0818 001:238 JLINK_WriteReg(R9, 0x20000130)  returns 0x00 (0000ms, 0921ms total)
T0818 001:238 JLINK_WriteReg(R10, 0x00000000)  returns 0x00 (0000ms, 0921ms total)
T0818 001:238 JLINK_WriteReg(R11, 0x00000000)  returns 0x00 (0000ms, 0921ms total)
T0818 001:238 JLINK_WriteReg(R12, 0x00000000)  returns 0x00 (0000ms, 0921ms total)
T0818 001:238 JLINK_WriteReg(R13, 0x20000800)  returns 0x00 (0000ms, 0921ms total)
T0818 001:238 JLINK_WriteReg(R14, 0x20000001)  returns 0x00 (0000ms, 0921ms total)
T0818 001:238 JLINK_WriteReg(R15, 0x20000020)  returns 0x00 (0000ms, 0921ms total)
T0818 001:238 JLINK_WriteReg(XPSR, 0x01000000)  returns 0x00 (0000ms, 0921ms total)
T0818 001:238 JLINK_WriteReg(MSP, 0x20000800)  returns 0x00 (0000ms, 0921ms total)
T0818 001:238 JLINK_WriteReg(PSP, 0x20000800)  returns 0x00 (0000ms, 0921ms total)
T0818 001:238 JLINK_WriteReg(CFBP, 0x00000000)  returns 0x00 (0000ms, 0921ms total)
T0818 001:238 JLINK_SetBPEx(Addr = 0x20000000, Type = 0xFFFFFFF2)  returns 0x00000008 (0000ms, 0921ms total)
T0818 001:238 JLINK_Go() -- CPU_WriteMem(4 bytes @ 0xE0002008) -- CPU_WriteMem(4 bytes @ 0xE000200C) -- CPU_WriteMem(4 bytes @ 0xE0002010) -- CPU_WriteMem(4 bytes @ 0xE0002014) -- CPU_WriteMem(4 bytes @ 0xE0002018) -- CPU_WriteMem(4 bytes @ 0xE000201C) (0010ms, 0921ms total)
T0818 001:248 JLINK_IsHalted() -- CPU_ReadMem(2 bytes @ 0x20000000)  returns TRUE (0015ms, 0931ms total)
T0818 001:263 JLINK_ReadReg(R15)  returns 0x20000000 (0000ms, 0931ms total)
T0818 001:263 JLINK_ClrBPEx(BPHandle = 0x00000008)  returns 0x00 (0000ms, 0931ms total)
T0818 001:263 JLINK_ReadReg(R0)  returns 0x00000001 (0000ms, 0931ms total)
T0818 001:264 JLINK_WriteReg(R0, 0x00001C00)  returns 0x00 (0000ms, 0932ms total)
T0818 001:264 JLINK_WriteReg(R1, 0x00000400)  returns 0x00 (0000ms, 0932ms total)
T0818 001:264 JLINK_WriteReg(R2, 0x000000FF)  returns 0x00 (0000ms, 0932ms total)
T0818 001:264 JLINK_WriteReg(R3, 0x00000000)  returns 0x00 (0000ms, 0932ms total)
T0818 001:264 JLINK_WriteReg(R4, 0x00000000)  returns 0x00 (0000ms, 0932ms total)
T0818 001:264 JLINK_WriteReg(R5, 0x00000000)  returns 0x00 (0000ms, 0932ms total)
T0818 001:264 JLINK_WriteReg(R6, 0x00000000)  returns 0x00 (0000ms, 0932ms total)
T0818 001:264 JLINK_WriteReg(R7, 0x00000000)  returns 0x00 (0000ms, 0932ms total)
T0818 001:264 JLINK_WriteReg(R8, 0x00000000)  returns 0x00 (0000ms, 0932ms total)
T0818 001:264 JLINK_WriteReg(R9, 0x20000130)  returns 0x00 (0000ms, 0932ms total)
T0818 001:264 JLINK_WriteReg(R10, 0x00000000)  returns 0x00 (0000ms, 0932ms total)
T0818 001:264 JLINK_WriteReg(R11, 0x00000000)  returns 0x00 (0000ms, 0932ms total)
T0818 001:264 JLINK_WriteReg(R12, 0x00000000)  returns 0x00 (0000ms, 0932ms total)
T0818 001:264 JLINK_WriteReg(R13, 0x20000800)  returns 0x00 (0000ms, 0932ms total)
T0818 001:264 JLINK_WriteReg(R14, 0x20000001)  returns 0x00 (0000ms, 0932ms total)
T0818 001:264 JLINK_WriteReg(R15, 0x20000088)  returns 0x00 (0000ms, 0932ms total)
T0818 001:265 JLINK_WriteReg(XPSR, 0x01000000)  returns 0x00 (0000ms, 0933ms total)
T0818 001:265 JLINK_WriteReg(MSP, 0x20000800)  returns 0x00 (0000ms, 0933ms total)
T0818 001:265 JLINK_WriteReg(PSP, 0x20000800)  returns 0x00 (0000ms, 0933ms total)
T0818 001:265 JLINK_WriteReg(CFBP, 0x00000000)  returns 0x00 (0000ms, 0933ms total)
T0818 001:265 JLINK_SetBPEx(Addr = 0x20000000, Type = 0xFFFFFFF2)  returns 0x00000009 (0000ms, 0933ms total)
T0818 001:265 JLINK_Go() -- CPU_WriteMem(4 bytes @ 0xE0002008) -- CPU_WriteMem(4 bytes @ 0xE000200C) -- CPU_WriteMem(4 bytes @ 0xE0002010) -- CPU_WriteMem(4 bytes @ 0xE0002014) -- CPU_WriteMem(4 bytes @ 0xE0002018) -- CPU_WriteMem(4 bytes @ 0xE000201C) (0010ms, 0933ms total)
T0818 001:275 JLINK_IsHalted()  returns FALSE (0000ms, 0943ms total)
T0818 001:326 JLINK_IsHalted() -- CPU_ReadMem(2 bytes @ 0x20000000)  returns TRUE (0014ms, 0943ms total)
T0818 001:340 JLINK_ReadReg(R15)  returns 0x20000000 (0000ms, 0943ms total)
T0818 001:340 JLINK_ClrBPEx(BPHandle = 0x00000009)  returns 0x00 (0000ms, 0943ms total)
T0818 001:340 JLINK_ReadReg(R0)  returns 0x00000000 (0000ms, 0943ms total)
T0818 001:341 JLINK_WriteReg(R0, 0x00002000)  returns 0x00 (0001ms, 0943ms total)
T0818 001:342 JLINK_WriteReg(R1, 0x00000400)  returns 0x00 (0000ms, 0944ms total)
T0818 001:342 JLINK_WriteReg(R2, 0x000000FF)  returns 0x00 (0000ms, 0944ms total)
T0818 001:342 JLINK_WriteReg(R3, 0x00000000)  returns 0x00 (0000ms, 0944ms total)
T0818 001:342 JLINK_WriteReg(R4, 0x00000000)  returns 0x00 (0000ms, 0944ms total)
T0818 001:342 JLINK_WriteReg(R5, 0x00000000)  returns 0x00 (0000ms, 0944ms total)
T0818 001:342 JLINK_WriteReg(R6, 0x00000000)  returns 0x00 (0000ms, 0944ms total)
T0818 001:342 JLINK_WriteReg(R7, 0x00000000)  returns 0x00 (0000ms, 0944ms total)
T0818 001:342 JLINK_WriteReg(R8, 0x00000000)  returns 0x00 (0000ms, 0944ms total)
T0818 001:342 JLINK_WriteReg(R9, 0x20000130)  returns 0x00 (0000ms, 0944ms total)
T0818 001:342 JLINK_WriteReg(R10, 0x00000000)  returns 0x00 (0000ms, 0944ms total)
T0818 001:342 JLINK_WriteReg(R11, 0x00000000)  returns 0x00 (0000ms, 0944ms total)
T0818 001:342 JLINK_WriteReg(R12, 0x00000000)  returns 0x00 (0000ms, 0944ms total)
T0818 001:342 JLINK_WriteReg(R13, 0x20000800)  returns 0x00 (0000ms, 0944ms total)
T0818 001:342 JLINK_WriteReg(R14, 0x20000001)  returns 0x00 (0000ms, 0944ms total)
T0818 001:342 JLINK_WriteReg(R15, 0x20000020)  returns 0x00 (0000ms, 0944ms total)
T0818 001:342 JLINK_WriteReg(XPSR, 0x01000000)  returns 0x00 (0001ms, 0944ms total)
T0818 001:343 JLINK_WriteReg(MSP, 0x20000800)  returns 0x00 (0000ms, 0945ms total)
T0818 001:343 JLINK_WriteReg(PSP, 0x20000800)  returns 0x00 (0000ms, 0945ms total)
T0818 001:343 JLINK_WriteReg(CFBP, 0x00000000)  returns 0x00 (0000ms, 0945ms total)
T0818 001:343 JLINK_SetBPEx(Addr = 0x20000000, Type = 0xFFFFFFF2)  returns 0x0000000A (0000ms, 0945ms total)
T0818 001:343 JLINK_Go() -- CPU_WriteMem(4 bytes @ 0xE0002008) -- CPU_WriteMem(4 bytes @ 0xE000200C) -- CPU_WriteMem(4 bytes @ 0xE0002010) -- CPU_WriteMem(4 bytes @ 0xE0002014) -- CPU_WriteMem(4 bytes @ 0xE0002018) -- CPU_WriteMem(4 bytes @ 0xE000201C) (0010ms, 0945ms total)
T0818 001:353 JLINK_IsHalted() -- CPU_ReadMem(2 bytes @ 0x20000000)  returns TRUE (0013ms, 0955ms total)
T0818 001:366 JLINK_ReadReg(R15)  returns 0x20000000 (0000ms, 0955ms total)
T0818 001:366 JLINK_ClrBPEx(BPHandle = 0x0000000A)  returns 0x00 (0001ms, 0955ms total)
T0818 001:367 JLINK_ReadReg(R0)  returns 0x00000001 (0000ms, 0956ms total)
T0818 001:367 JLINK_WriteReg(R0, 0x00002000)  returns 0x00 (0000ms, 0956ms total)
T0818 001:367 JLINK_WriteReg(R1, 0x00000400)  returns 0x00 (0000ms, 0956ms total)
T0818 001:367 JLINK_WriteReg(R2, 0x000000FF)  returns 0x00 (0000ms, 0956ms total)
T0818 001:367 JLINK_WriteReg(R3, 0x00000000)  returns 0x00 (0000ms, 0956ms total)
T0818 001:367 JLINK_WriteReg(R4, 0x00000000)  returns 0x00 (0000ms, 0956ms total)
T0818 001:367 JLINK_WriteReg(R5, 0x00000000)  returns 0x00 (0000ms, 0956ms total)
T0818 001:367 JLINK_WriteReg(R6, 0x00000000)  returns 0x00 (0000ms, 0956ms total)
T0818 001:367 JLINK_WriteReg(R7, 0x00000000)  returns 0x00 (0000ms, 0956ms total)
T0818 001:367 JLINK_WriteReg(R8, 0x00000000)  returns 0x00 (0000ms, 0956ms total)
T0818 001:367 JLINK_WriteReg(R9, 0x20000130)  returns 0x00 (0000ms, 0956ms total)
T0818 001:367 JLINK_WriteReg(R10, 0x00000000)  returns 0x00 (0000ms, 0956ms total)
T0818 001:367 JLINK_WriteReg(R11, 0x00000000)  returns 0x00 (0000ms, 0956ms total)
T0818 001:367 JLINK_WriteReg(R12, 0x00000000)  returns 0x00 (0000ms, 0956ms total)
T0818 001:367 JLINK_WriteReg(R13, 0x20000800)  returns 0x00 (0000ms, 0956ms total)
T0818 001:367 JLINK_WriteReg(R14, 0x20000001)  returns 0x00 (0001ms, 0956ms total)
T0818 001:368 JLINK_WriteReg(R15, 0x20000088)  returns 0x00 (0000ms, 0957ms total)
T0818 001:368 JLINK_WriteReg(XPSR, 0x01000000)  returns 0x00 (0000ms, 0957ms total)
T0818 001:368 JLINK_WriteReg(MSP, 0x20000800)  returns 0x00 (0000ms, 0957ms total)
T0818 001:368 JLINK_WriteReg(PSP, 0x20000800)  returns 0x00 (0000ms, 0957ms total)
T0818 001:368 JLINK_WriteReg(CFBP, 0x00000000)  returns 0x00 (0000ms, 0957ms total)
T0818 001:368 JLINK_SetBPEx(Addr = 0x20000000, Type = 0xFFFFFFF2)  returns 0x0000000B (0000ms, 0957ms total)
T0818 001:368 JLINK_Go() -- CPU_WriteMem(4 bytes @ 0xE0002008) -- CPU_WriteMem(4 bytes @ 0xE000200C) -- CPU_WriteMem(4 bytes @ 0xE0002010) -- CPU_WriteMem(4 bytes @ 0xE0002014) -- CPU_WriteMem(4 bytes @ 0xE0002018) -- CPU_WriteMem(4 bytes @ 0xE000201C) (0009ms, 0957ms total)
T0818 001:377 JLINK_IsHalted()  returns FALSE (0002ms, 0966ms total)
T0818 001:430 JLINK_IsHalted() -- CPU_ReadMem(2 bytes @ 0x20000000)  returns TRUE (0013ms, 0966ms total)
T0818 001:443 JLINK_ReadReg(R15)  returns 0x20000000 (0000ms, 0966ms total)
T0818 001:443 JLINK_ClrBPEx(BPHandle = 0x0000000B)  returns 0x00 (0000ms, 0966ms total)
T0818 001:443 JLINK_ReadReg(R0)  returns 0x00000000 (0000ms, 0966ms total)
T0818 001:445 JLINK_WriteReg(R0, 0x00002400)  returns 0x00 (0000ms, 0966ms total)
T0818 001:445 JLINK_WriteReg(R1, 0x00000400)  returns 0x00 (0000ms, 0966ms total)
T0818 001:445 JLINK_WriteReg(R2, 0x000000FF)  returns 0x00 (0000ms, 0966ms total)
T0818 001:445 JLINK_WriteReg(R3, 0x00000000)  returns 0x00 (0000ms, 0966ms total)
T0818 001:445 JLINK_WriteReg(R4, 0x00000000)  returns 0x00 (0000ms, 0966ms total)
T0818 001:445 JLINK_WriteReg(R5, 0x00000000)  returns 0x00 (0000ms, 0966ms total)
T0818 001:445 JLINK_WriteReg(R6, 0x00000000)  returns 0x00 (0000ms, 0966ms total)
T0818 001:445 JLINK_WriteReg(R7, 0x00000000)  returns 0x00 (0000ms, 0966ms total)
T0818 001:445 JLINK_WriteReg(R8, 0x00000000)  returns 0x00 (0000ms, 0966ms total)
T0818 001:445 JLINK_WriteReg(R9, 0x20000130)  returns 0x00 (0000ms, 0966ms total)
T0818 001:445 JLINK_WriteReg(R10, 0x00000000)  returns 0x00 (0000ms, 0966ms total)
T0818 001:445 JLINK_WriteReg(R11, 0x00000000)  returns 0x00 (0000ms, 0966ms total)
T0818 001:446 JLINK_WriteReg(R12, 0x00000000)  returns 0x00 (0000ms, 0967ms total)
T0818 001:446 JLINK_WriteReg(R13, 0x20000800)  returns 0x00 (0000ms, 0967ms total)
T0818 001:446 JLINK_WriteReg(R14, 0x20000001)  returns 0x00 (0000ms, 0967ms total)
T0818 001:446 JLINK_WriteReg(R15, 0x20000020)  returns 0x00 (0000ms, 0967ms total)
T0818 001:446 JLINK_WriteReg(XPSR, 0x01000000)  returns 0x00 (0000ms, 0967ms total)
T0818 001:446 JLINK_WriteReg(MSP, 0x20000800)  returns 0x00 (0000ms, 0967ms total)
T0818 001:446 JLINK_WriteReg(PSP, 0x20000800)  returns 0x00 (0000ms, 0967ms total)
T0818 001:446 JLINK_WriteReg(CFBP, 0x00000000)  returns 0x00 (0000ms, 0967ms total)
T0818 001:446 JLINK_SetBPEx(Addr = 0x20000000, Type = 0xFFFFFFF2)  returns 0x0000000C (0000ms, 0967ms total)
T0818 001:446 JLINK_Go() -- CPU_WriteMem(4 bytes @ 0xE0002008) -- CPU_WriteMem(4 bytes @ 0xE000200C) -- CPU_WriteMem(4 bytes @ 0xE0002010) -- CPU_WriteMem(4 bytes @ 0xE0002014) -- CPU_WriteMem(4 bytes @ 0xE0002018) -- CPU_WriteMem(4 bytes @ 0xE000201C) (0010ms, 0967ms total)
T0818 001:456 JLINK_IsHalted() -- CPU_ReadMem(2 bytes @ 0x20000000)  returns TRUE (0015ms, 0977ms total)
T0818 001:471 JLINK_ReadReg(R15)  returns 0x20000000 (0000ms, 0977ms total)
T0818 001:471 JLINK_ClrBPEx(BPHandle = 0x0000000C)  returns 0x00 (0000ms, 0977ms total)
T0818 001:471 JLINK_ReadReg(R0)  returns 0x00000001 (0001ms, 0977ms total)
T0818 001:472 JLINK_WriteReg(R0, 0x00002400)  returns 0x00 (0000ms, 0978ms total)
T0818 001:472 JLINK_WriteReg(R1, 0x00000400)  returns 0x00 (0000ms, 0978ms total)
T0818 001:472 JLINK_WriteReg(R2, 0x000000FF)  returns 0x00 (0000ms, 0978ms total)
T0818 001:472 JLINK_WriteReg(R3, 0x00000000)  returns 0x00 (0000ms, 0978ms total)
T0818 001:472 JLINK_WriteReg(R4, 0x00000000)  returns 0x00 (0000ms, 0978ms total)
T0818 001:472 JLINK_WriteReg(R5, 0x00000000)  returns 0x00 (0000ms, 0978ms total)
T0818 001:472 JLINK_WriteReg(R6, 0x00000000)  returns 0x00 (0000ms, 0978ms total)
T0818 001:472 JLINK_WriteReg(R7, 0x00000000)  returns 0x00 (0000ms, 0978ms total)
T0818 001:472 JLINK_WriteReg(R8, 0x00000000)  returns 0x00 (0000ms, 0978ms total)
T0818 001:472 JLINK_WriteReg(R9, 0x20000130)  returns 0x00 (0000ms, 0978ms total)
T0818 001:472 JLINK_WriteReg(R10, 0x00000000)  returns 0x00 (0000ms, 0978ms total)
T0818 001:472 JLINK_WriteReg(R11, 0x00000000)  returns 0x00 (0000ms, 0978ms total)
T0818 001:472 JLINK_WriteReg(R12, 0x00000000)  returns 0x00 (0000ms, 0978ms total)
T0818 001:472 JLINK_WriteReg(R13, 0x20000800)  returns 0x00 (0000ms, 0978ms total)
T0818 001:472 JLINK_WriteReg(R14, 0x20000001)  returns 0x00 (0000ms, 0978ms total)
T0818 001:472 JLINK_WriteReg(R15, 0x20000088)  returns 0x00 (0000ms, 0978ms total)
T0818 001:472 JLINK_WriteReg(XPSR, 0x01000000)  returns 0x00 (0000ms, 0978ms total)
T0818 001:472 JLINK_WriteReg(MSP, 0x20000800)  returns 0x00 (0000ms, 0978ms total)
T0818 001:472 JLINK_WriteReg(PSP, 0x20000800)  returns 0x00 (0000ms, 0978ms total)
T0818 001:472 JLINK_WriteReg(CFBP, 0x00000000)  returns 0x00 (0000ms, 0978ms total)
T0818 001:472 JLINK_SetBPEx(Addr = 0x20000000, Type = 0xFFFFFFF2)  returns 0x0000000D (0000ms, 0978ms total)
T0818 001:472 JLINK_Go() -- CPU_WriteMem(4 bytes @ 0xE0002008) -- CPU_WriteMem(4 bytes @ 0xE000200C) -- CPU_WriteMem(4 bytes @ 0xE0002010) -- CPU_WriteMem(4 bytes @ 0xE0002014) -- CPU_WriteMem(4 bytes @ 0xE0002018) -- CPU_WriteMem(4 bytes @ 0xE000201C) (0010ms, 0978ms total)
T0818 001:482 JLINK_IsHalted()  returns FALSE (0001ms, 0988ms total)
T0818 001:533 JLINK_IsHalted() -- CPU_ReadMem(2 bytes @ 0x20000000)  returns TRUE (0014ms, 0988ms total)
T0818 001:547 JLINK_ReadReg(R15)  returns 0x20000000 (0000ms, 0988ms total)
T0818 001:547 JLINK_ClrBPEx(BPHandle = 0x0000000D)  returns 0x00 (0000ms, 0988ms total)
T0818 001:547 JLINK_ReadReg(R0)  returns 0x00000000 (0000ms, 0988ms total)
T0818 001:549 JLINK_WriteReg(R0, 0x00002800)  returns 0x00 (0000ms, 0988ms total)
T0818 001:549 JLINK_WriteReg(R1, 0x00000400)  returns 0x00 (0000ms, 0988ms total)
T0818 001:549 JLINK_WriteReg(R2, 0x000000FF)  returns 0x00 (0000ms, 0988ms total)
T0818 001:549 JLINK_WriteReg(R3, 0x00000000)  returns 0x00 (0000ms, 0988ms total)
T0818 001:549 JLINK_WriteReg(R4, 0x00000000)  returns 0x00 (0000ms, 0988ms total)
T0818 001:549 JLINK_WriteReg(R5, 0x00000000)  returns 0x00 (0000ms, 0988ms total)
T0818 001:550 JLINK_WriteReg(R6, 0x00000000)  returns 0x00 (0000ms, 0989ms total)
T0818 001:550 JLINK_WriteReg(R7, 0x00000000)  returns 0x00 (0000ms, 0989ms total)
T0818 001:550 JLINK_WriteReg(R8, 0x00000000)  returns 0x00 (0000ms, 0989ms total)
T0818 001:550 JLINK_WriteReg(R9, 0x20000130)  returns 0x00 (0000ms, 0989ms total)
T0818 001:550 JLINK_WriteReg(R10, 0x00000000)  returns 0x00 (0000ms, 0989ms total)
T0818 001:550 JLINK_WriteReg(R11, 0x00000000)  returns 0x00 (0000ms, 0989ms total)
T0818 001:550 JLINK_WriteReg(R12, 0x00000000)  returns 0x00 (0000ms, 0989ms total)
T0818 001:550 JLINK_WriteReg(R13, 0x20000800)  returns 0x00 (0000ms, 0989ms total)
T0818 001:550 JLINK_WriteReg(R14, 0x20000001)  returns 0x00 (0000ms, 0989ms total)
T0818 001:550 JLINK_WriteReg(R15, 0x20000020)  returns 0x00 (0000ms, 0989ms total)
T0818 001:550 JLINK_WriteReg(XPSR, 0x01000000)  returns 0x00 (0000ms, 0989ms total)
T0818 001:550 JLINK_WriteReg(MSP, 0x20000800)  returns 0x00 (0001ms, 0989ms total)
T0818 001:551 JLINK_WriteReg(PSP, 0x20000800)  returns 0x00 (0000ms, 0990ms total)
T0818 001:551 JLINK_WriteReg(CFBP, 0x00000000)  returns 0x00 (0000ms, 0990ms total)
T0818 001:551 JLINK_SetBPEx(Addr = 0x20000000, Type = 0xFFFFFFF2)  returns 0x0000000E (0000ms, 0990ms total)
T0818 001:551 JLINK_Go() -- CPU_WriteMem(4 bytes @ 0xE0002008) -- CPU_WriteMem(4 bytes @ 0xE000200C) -- CPU_WriteMem(4 bytes @ 0xE0002010) -- CPU_WriteMem(4 bytes @ 0xE0002014) -- CPU_WriteMem(4 bytes @ 0xE0002018) -- CPU_WriteMem(4 bytes @ 0xE000201C) (0010ms, 0990ms total)
T0818 001:561 JLINK_IsHalted() -- CPU_ReadMem(2 bytes @ 0x20000000)  returns TRUE (0013ms, 1000ms total)
T0818 001:574 JLINK_ReadReg(R15)  returns 0x20000000 (0000ms, 1000ms total)
T0818 001:574 JLINK_ClrBPEx(BPHandle = 0x0000000E)  returns 0x00 (0001ms, 1000ms total)
T0818 001:575 JLINK_ReadReg(R0)  returns 0x00000001 (0000ms, 1001ms total)
T0818 001:575 JLINK_WriteReg(R0, 0x00002800)  returns 0x00 (0000ms, 1001ms total)
T0818 001:575 JLINK_WriteReg(R1, 0x00000400)  returns 0x00 (0000ms, 1001ms total)
T0818 001:575 JLINK_WriteReg(R2, 0x000000FF)  returns 0x00 (0000ms, 1001ms total)
T0818 001:575 JLINK_WriteReg(R3, 0x00000000)  returns 0x00 (0000ms, 1001ms total)
T0818 001:575 JLINK_WriteReg(R4, 0x00000000)  returns 0x00 (0000ms, 1001ms total)
T0818 001:575 JLINK_WriteReg(R5, 0x00000000)  returns 0x00 (0000ms, 1001ms total)
T0818 001:575 JLINK_WriteReg(R6, 0x00000000)  returns 0x00 (0000ms, 1001ms total)
T0818 001:575 JLINK_WriteReg(R7, 0x00000000)  returns 0x00 (0000ms, 1001ms total)
T0818 001:575 JLINK_WriteReg(R8, 0x00000000)  returns 0x00 (0000ms, 1001ms total)
T0818 001:575 JLINK_WriteReg(R9, 0x20000130)  returns 0x00 (0000ms, 1001ms total)
T0818 001:575 JLINK_WriteReg(R10, 0x00000000)  returns 0x00 (0000ms, 1001ms total)
T0818 001:575 JLINK_WriteReg(R11, 0x00000000)  returns 0x00 (0000ms, 1001ms total)
T0818 001:575 JLINK_WriteReg(R12, 0x00000000)  returns 0x00 (0000ms, 1001ms total)
T0818 001:575 JLINK_WriteReg(R13, 0x20000800)  returns 0x00 (0000ms, 1001ms total)
T0818 001:575 JLINK_WriteReg(R14, 0x20000001)  returns 0x00 (0001ms, 1001ms total)
T0818 001:576 JLINK_WriteReg(R15, 0x20000088)  returns 0x00 (0000ms, 1002ms total)
T0818 001:576 JLINK_WriteReg(XPSR, 0x01000000)  returns 0x00 (0000ms, 1002ms total)
T0818 001:576 JLINK_WriteReg(MSP, 0x20000800)  returns 0x00 (0000ms, 1002ms total)
T0818 001:576 JLINK_WriteReg(PSP, 0x20000800)  returns 0x00 (0000ms, 1002ms total)
T0818 001:576 JLINK_WriteReg(CFBP, 0x00000000)  returns 0x00 (0000ms, 1002ms total)
T0818 001:576 JLINK_SetBPEx(Addr = 0x20000000, Type = 0xFFFFFFF2)  returns 0x0000000F (0000ms, 1002ms total)
T0818 001:576 JLINK_Go() -- CPU_WriteMem(4 bytes @ 0xE0002008) -- CPU_WriteMem(4 bytes @ 0xE000200C) -- CPU_WriteMem(4 bytes @ 0xE0002010) -- CPU_WriteMem(4 bytes @ 0xE0002014) -- CPU_WriteMem(4 bytes @ 0xE0002018) -- CPU_WriteMem(4 bytes @ 0xE000201C) (0010ms, 1002ms total)
T0818 001:586 JLINK_IsHalted()  returns FALSE (0001ms, 1012ms total)
T0818 001:638 JLINK_IsHalted() -- CPU_ReadMem(2 bytes @ 0x20000000)  returns TRUE (0013ms, 1012ms total)
T0818 001:651 JLINK_ReadReg(R15)  returns 0x20000000 (0000ms, 1012ms total)
T0818 001:651 JLINK_ClrBPEx(BPHandle = 0x0000000F)  returns 0x00 (0000ms, 1012ms total)
T0818 001:651 JLINK_ReadReg(R0)  returns 0x00000000 (0000ms, 1012ms total)
T0818 001:652 JLINK_WriteReg(R0, 0x00002C00)  returns 0x00 (0000ms, 1012ms total)
T0818 001:652 JLINK_WriteReg(R1, 0x00000400)  returns 0x00 (0000ms, 1012ms total)
T0818 001:652 JLINK_WriteReg(R2, 0x000000FF)  returns 0x00 (0000ms, 1012ms total)
T0818 001:652 JLINK_WriteReg(R3, 0x00000000)  returns 0x00 (0000ms, 1012ms total)
T0818 001:653 JLINK_WriteReg(R4, 0x00000000)  returns 0x00 (0000ms, 1013ms total)
T0818 001:653 JLINK_WriteReg(R5, 0x00000000)  returns 0x00 (0000ms, 1013ms total)
T0818 001:653 JLINK_WriteReg(R6, 0x00000000)  returns 0x00 (0000ms, 1013ms total)
T0818 001:653 JLINK_WriteReg(R7, 0x00000000)  returns 0x00 (0000ms, 1013ms total)
T0818 001:653 JLINK_WriteReg(R8, 0x00000000)  returns 0x00 (0000ms, 1013ms total)
T0818 001:653 JLINK_WriteReg(R9, 0x20000130)  returns 0x00 (0000ms, 1013ms total)
T0818 001:653 JLINK_WriteReg(R10, 0x00000000)  returns 0x00 (0000ms, 1013ms total)
T0818 001:653 JLINK_WriteReg(R11, 0x00000000)  returns 0x00 (0000ms, 1013ms total)
T0818 001:653 JLINK_WriteReg(R12, 0x00000000)  returns 0x00 (0000ms, 1013ms total)
T0818 001:653 JLINK_WriteReg(R13, 0x20000800)  returns 0x00 (0000ms, 1013ms total)
T0818 001:653 JLINK_WriteReg(R14, 0x20000001)  returns 0x00 (0000ms, 1013ms total)
T0818 001:653 JLINK_WriteReg(R15, 0x20000020)  returns 0x00 (0000ms, 1013ms total)
T0818 001:653 JLINK_WriteReg(XPSR, 0x01000000)  returns 0x00 (0000ms, 1013ms total)
T0818 001:653 JLINK_WriteReg(MSP, 0x20000800)  returns 0x00 (0000ms, 1013ms total)
T0818 001:653 JLINK_WriteReg(PSP, 0x20000800)  returns 0x00 (0000ms, 1013ms total)
T0818 001:653 JLINK_WriteReg(CFBP, 0x00000000)  returns 0x00 (0001ms, 1013ms total)
T0818 001:654 JLINK_SetBPEx(Addr = 0x20000000, Type = 0xFFFFFFF2)  returns 0x00000010 (0000ms, 1014ms total)
T0818 001:654 JLINK_Go() -- CPU_WriteMem(4 bytes @ 0xE0002008) -- CPU_WriteMem(4 bytes @ 0xE000200C) -- CPU_WriteMem(4 bytes @ 0xE0002010) -- CPU_WriteMem(4 bytes @ 0xE0002014) -- CPU_WriteMem(4 bytes @ 0xE0002018) -- CPU_WriteMem(4 bytes @ 0xE000201C) (0010ms, 1014ms total)
T0818 001:664 JLINK_IsHalted() -- CPU_ReadMem(2 bytes @ 0x20000000)  returns TRUE (0014ms, 1024ms total)
T0818 001:678 JLINK_ReadReg(R15)  returns 0x20000000 (0000ms, 1024ms total)
T0818 001:678 JLINK_ClrBPEx(BPHandle = 0x00000010)  returns 0x00 (0000ms, 1024ms total)
T0818 001:678 JLINK_ReadReg(R0)  returns 0x00000001 (0000ms, 1024ms total)
T0818 001:678 JLINK_WriteReg(R0, 0x00002C00)  returns 0x00 (0000ms, 1024ms total)
T0818 001:679 JLINK_WriteReg(R1, 0x00000400)  returns 0x00 (0000ms, 1025ms total)
T0818 001:679 JLINK_WriteReg(R2, 0x000000FF)  returns 0x00 (0000ms, 1025ms total)
